* c:\users\vivobook\appdata\roaming\spb_data\esim-workspace\counter\counter.cir
Transient Analysis  Sat Oct 08 23:11:24  2022
--------------------------------------------------------------------------------
Index   time            a0              a1              a2              
--------------------------------------------------------------------------------
0	0.000000e+00	0.000000e+00	0.000000e+00	0.000000e+00	
1	1.000000e-12	0.000000e+00	0.000000e+00	0.000000e+00	
2	2.000000e-12	0.000000e+00	0.000000e+00	0.000000e+00	
3	4.000000e-12	0.000000e+00	0.000000e+00	0.000000e+00	
4	8.000000e-12	0.000000e+00	0.000000e+00	0.000000e+00	
5	1.600000e-11	0.000000e+00	0.000000e+00	0.000000e+00	
6	3.200000e-11	0.000000e+00	0.000000e+00	0.000000e+00	
7	6.400000e-11	0.000000e+00	0.000000e+00	0.000000e+00	
8	1.000000e-10	0.000000e+00	0.000000e+00	0.000000e+00	
9	1.064000e-10	0.000000e+00	0.000000e+00	0.000000e+00	
10	1.192000e-10	0.000000e+00	0.000000e+00	0.000000e+00	
11	1.448000e-10	0.000000e+00	0.000000e+00	0.000000e+00	
12	1.960000e-10	0.000000e+00	0.000000e+00	0.000000e+00	
13	2.000000e-10	0.000000e+00	0.000000e+00	0.000000e+00	
14	2.080000e-10	0.000000e+00	0.000000e+00	0.000000e+00	
15	2.240000e-10	0.000000e+00	0.000000e+00	0.000000e+00	
16	2.560000e-10	0.000000e+00	0.000000e+00	0.000000e+00	
17	3.200000e-10	0.000000e+00	0.000000e+00	0.000000e+00	
18	4.480000e-10	0.000000e+00	0.000000e+00	0.000000e+00	
19	7.040000e-10	0.000000e+00	0.000000e+00	0.000000e+00	
20	1.216000e-09	0.000000e+00	0.000000e+00	0.000000e+00	
21	2.196000e-09	0.000000e+00	0.000000e+00	0.000000e+00	
22	2.296000e-09	5.000000e-01	5.000000e-01	5.000000e-01	
23	2.496000e-09	1.500000e+00	1.500000e+00	1.500000e+00	
24	2.896000e-09	3.500000e+00	3.500000e+00	3.500000e+00	
25	3.196000e-09	5.000000e+00	5.000000e+00	5.000000e+00	
26	3.276000e-09	5.000000e+00	5.000000e+00	5.000000e+00	
27	3.436000e-09	5.000000e+00	5.000000e+00	5.000000e+00	
28	3.756000e-09	5.000000e+00	5.000000e+00	5.000000e+00	
29	4.396000e-09	5.000000e+00	5.000000e+00	5.000000e+00	
30	5.676000e-09	5.000000e+00	5.000000e+00	5.000000e+00	
31	8.236000e-09	5.000000e+00	5.000000e+00	5.000000e+00	
32	1.335600e-08	5.000000e+00	5.000000e+00	5.000000e+00	
33	2.359600e-08	5.000000e+00	5.000000e+00	5.000000e+00	
34	4.407600e-08	5.000000e+00	5.000000e+00	5.000000e+00	
35	8.503600e-08	5.000000e+00	5.000000e+00	5.000000e+00	
36	1.669560e-07	5.000000e+00	5.000000e+00	5.000000e+00	
37	3.307960e-07	5.000000e+00	5.000000e+00	5.000000e+00	
38	6.584760e-07	5.000000e+00	5.000000e+00	5.000000e+00	
39	1.313836e-06	5.000000e+00	5.000000e+00	5.000000e+00	
40	2.624556e-06	5.000000e+00	5.000000e+00	5.000000e+00	
41	5.245996e-06	5.000000e+00	5.000000e+00	5.000000e+00	
42	9.245996e-06	5.000000e+00	5.000000e+00	5.000000e+00	
43	1.324600e-05	5.000000e+00	5.000000e+00	5.000000e+00	
44	1.724600e-05	5.000000e+00	5.000000e+00	5.000000e+00	
45	2.124600e-05	5.000000e+00	5.000000e+00	5.000000e+00	
46	2.524600e-05	5.000000e+00	5.000000e+00	5.000000e+00	
47	2.924600e-05	5.000000e+00	5.000000e+00	5.000000e+00	
48	3.000020e-05	5.000000e+00	5.000000e+00	5.000000e+00	
49	3.000021e-05	5.000000e+00	5.000000e+00	5.000000e+00	
50	3.000023e-05	5.000000e+00	5.000000e+00	5.000000e+00	
51	3.000027e-05	5.000000e+00	5.000000e+00	5.000000e+00	
52	3.000030e-05	5.000000e+00	5.000000e+00	5.000000e+00	
53	3.000031e-05	5.000000e+00	5.000000e+00	5.000000e+00	
54	3.000032e-05	5.000000e+00	5.000000e+00	5.000000e+00	

Index   time            a0              a1              a2              
--------------------------------------------------------------------------------
55	3.000036e-05	5.000000e+00	5.000000e+00	5.000000e+00	
56	3.000042e-05	5.000000e+00	5.000000e+00	5.000000e+00	
57	3.000055e-05	5.000000e+00	5.000000e+00	5.000000e+00	
58	3.000080e-05	5.000000e+00	5.000000e+00	5.000000e+00	
59	3.000132e-05	5.000000e+00	5.000000e+00	5.000000e+00	
60	3.000234e-05	5.000000e+00	5.000000e+00	5.000000e+00	
61	3.000439e-05	5.000000e+00	5.000000e+00	5.000000e+00	
62	3.000848e-05	5.000000e+00	5.000000e+00	5.000000e+00	
63	3.001668e-05	5.000000e+00	5.000000e+00	5.000000e+00	
64	3.003306e-05	5.000000e+00	5.000000e+00	5.000000e+00	
65	3.006583e-05	5.000000e+00	5.000000e+00	5.000000e+00	
66	3.013136e-05	5.000000e+00	5.000000e+00	5.000000e+00	
67	3.026244e-05	5.000000e+00	5.000000e+00	5.000000e+00	
68	3.052458e-05	5.000000e+00	5.000000e+00	5.000000e+00	
69	3.104887e-05	5.000000e+00	5.000000e+00	5.000000e+00	
70	3.209744e-05	5.000000e+00	5.000000e+00	5.000000e+00	
71	3.419460e-05	5.000000e+00	5.000000e+00	5.000000e+00	
72	3.819460e-05	5.000000e+00	5.000000e+00	5.000000e+00	
73	4.219460e-05	5.000000e+00	5.000000e+00	5.000000e+00	
74	4.619460e-05	5.000000e+00	5.000000e+00	5.000000e+00	
75	5.019460e-05	5.000000e+00	5.000000e+00	5.000000e+00	
76	5.419460e-05	5.000000e+00	5.000000e+00	5.000000e+00	
77	5.819460e-05	5.000000e+00	5.000000e+00	5.000000e+00	
78	6.219460e-05	5.000000e+00	5.000000e+00	5.000000e+00	
79	6.619460e-05	5.000000e+00	5.000000e+00	5.000000e+00	
80	7.019460e-05	5.000000e+00	5.000000e+00	5.000000e+00	
81	7.419460e-05	5.000000e+00	5.000000e+00	5.000000e+00	
82	7.819460e-05	5.000000e+00	5.000000e+00	5.000000e+00	
83	8.219460e-05	5.000000e+00	5.000000e+00	5.000000e+00	
84	8.619460e-05	5.000000e+00	5.000000e+00	5.000000e+00	
85	9.019460e-05	5.000000e+00	5.000000e+00	5.000000e+00	
86	9.419460e-05	5.000000e+00	5.000000e+00	5.000000e+00	
87	9.819460e-05	5.000000e+00	5.000000e+00	5.000000e+00	
88	1.021946e-04	5.000000e+00	5.000000e+00	5.000000e+00	
89	1.061946e-04	5.000000e+00	5.000000e+00	5.000000e+00	
90	1.101946e-04	5.000000e+00	5.000000e+00	5.000000e+00	
91	1.141946e-04	5.000000e+00	5.000000e+00	5.000000e+00	
92	1.181946e-04	5.000000e+00	5.000000e+00	5.000000e+00	
93	1.221946e-04	5.000000e+00	5.000000e+00	5.000000e+00	
94	1.261946e-04	5.000000e+00	5.000000e+00	5.000000e+00	
95	1.301946e-04	5.000000e+00	5.000000e+00	5.000000e+00	
96	1.341946e-04	5.000000e+00	5.000000e+00	5.000000e+00	
97	1.381946e-04	5.000000e+00	5.000000e+00	5.000000e+00	
98	1.421946e-04	5.000000e+00	5.000000e+00	5.000000e+00	
99	1.461946e-04	5.000000e+00	5.000000e+00	5.000000e+00	
100	1.501946e-04	5.000000e+00	5.000000e+00	5.000000e+00	
101	1.541946e-04	5.000000e+00	5.000000e+00	5.000000e+00	
102	1.581946e-04	5.000000e+00	5.000000e+00	5.000000e+00	
103	1.621946e-04	5.000000e+00	5.000000e+00	5.000000e+00	
104	1.661946e-04	5.000000e+00	5.000000e+00	5.000000e+00	
105	1.700001e-04	5.000000e+00	5.000000e+00	5.000000e+00	
106	1.700001e-04	5.000000e+00	5.000000e+00	5.000000e+00	
107	1.700001e-04	5.000000e+00	5.000000e+00	5.000000e+00	
108	1.700002e-04	5.000000e+00	5.000000e+00	5.000000e+00	
109	1.700002e-04	5.000000e+00	5.000000e+00	5.000000e+00	
110	1.700002e-04	5.000000e+00	5.000000e+00	5.000000e+00	
111	1.700002e-04	5.000000e+00	5.000000e+00	5.000000e+00	
112	1.700003e-04	5.000000e+00	5.000000e+00	5.000000e+00	

Index   time            a0              a1              a2              
--------------------------------------------------------------------------------
113	1.700003e-04	5.000000e+00	5.000000e+00	5.000000e+00	
114	1.700004e-04	5.000000e+00	5.000000e+00	5.000000e+00	
115	1.700007e-04	5.000000e+00	5.000000e+00	5.000000e+00	
116	1.700012e-04	5.000000e+00	5.000000e+00	5.000000e+00	
117	1.700022e-04	5.000000e+00	5.000000e+00	5.000000e+00	
118	1.700043e-04	5.000000e+00	5.000000e+00	5.000000e+00	
119	1.700084e-04	5.000000e+00	5.000000e+00	5.000000e+00	
120	1.700166e-04	5.000000e+00	5.000000e+00	5.000000e+00	
121	1.700330e-04	5.000000e+00	5.000000e+00	5.000000e+00	
122	1.700657e-04	5.000000e+00	5.000000e+00	5.000000e+00	
123	1.701313e-04	5.000000e+00	5.000000e+00	5.000000e+00	
124	1.702623e-04	5.000000e+00	5.000000e+00	5.000000e+00	
125	1.705245e-04	5.000000e+00	5.000000e+00	5.000000e+00	
126	1.710488e-04	5.000000e+00	5.000000e+00	5.000000e+00	
127	1.720973e-04	5.000000e+00	5.000000e+00	5.000000e+00	
128	1.741945e-04	5.000000e+00	5.000000e+00	5.000000e+00	
129	1.781945e-04	5.000000e+00	5.000000e+00	5.000000e+00	
130	1.821945e-04	5.000000e+00	5.000000e+00	5.000000e+00	
131	1.861945e-04	5.000000e+00	5.000000e+00	5.000000e+00	
132	1.901945e-04	5.000000e+00	5.000000e+00	5.000000e+00	
133	1.941945e-04	5.000000e+00	5.000000e+00	5.000000e+00	
134	1.981945e-04	5.000000e+00	5.000000e+00	5.000000e+00	
135	2.000000e-04	5.000000e+00	5.000000e+00	5.000000e+00	

* c:\users\vivobook\appdata\roaming\spb_data\esim-workspace\counter\counter.cir
Transient Analysis  Sat Oct 08 23:11:24  2022
--------------------------------------------------------------------------------
Index   time                            clk             m.xsc1.msky130_ 
--------------------------------------------------------------------------------
0	0.000000e+00	0.000000e+00	6.787986e-01	1.800000e+00	
1	1.000000e-12	0.000000e+00	6.787986e-01	1.800000e+00	
2	2.000000e-12	0.000000e+00	6.787986e-01	1.800000e+00	
3	4.000000e-12	0.000000e+00	6.787986e-01	1.800000e+00	
4	8.000000e-12	0.000000e+00	6.787986e-01	1.800000e+00	
5	1.600000e-11	0.000000e+00	6.787986e-01	1.800000e+00	
6	3.200000e-11	0.000000e+00	6.787986e-01	1.800000e+00	
7	6.400000e-11	0.000000e+00	6.787986e-01	1.800000e+00	
8	1.000000e-10	0.000000e+00	6.787986e-01	1.800000e+00	
9	1.064000e-10	0.000000e+00	6.787986e-01	1.800000e+00	
10	1.192000e-10	0.000000e+00	6.787986e-01	1.800000e+00	
11	1.448000e-10	0.000000e+00	6.787986e-01	1.800000e+00	
12	1.960000e-10	0.000000e+00	6.787986e-01	1.800000e+00	
13	2.000000e-10	0.000000e+00	6.787986e-01	1.800000e+00	
14	2.080000e-10	0.000000e+00	6.787986e-01	1.800000e+00	
15	2.240000e-10	0.000000e+00	6.787986e-01	1.800000e+00	
16	2.560000e-10	0.000000e+00	6.787986e-01	1.800000e+00	
17	3.200000e-10	0.000000e+00	6.787986e-01	1.800000e+00	
18	4.480000e-10	0.000000e+00	6.787986e-01	1.800000e+00	
19	7.040000e-10	0.000000e+00	6.787986e-01	1.800000e+00	
20	1.216000e-09	0.000000e+00	6.787986e-01	1.800000e+00	
21	2.196000e-09	0.000000e+00	6.787986e-01	1.800000e+00	
22	2.296000e-09	0.000000e+00	6.787986e-01	1.800000e+00	
23	2.496000e-09	0.000000e+00	6.787986e-01	1.800000e+00	
24	2.896000e-09	0.000000e+00	6.787986e-01	1.800000e+00	
25	3.196000e-09	0.000000e+00	6.787986e-01	1.800000e+00	
26	3.276000e-09	0.000000e+00	6.787986e-01	1.800000e+00	
27	3.436000e-09	0.000000e+00	6.787986e-01	1.800000e+00	
28	3.756000e-09	0.000000e+00	6.787986e-01	1.800000e+00	
29	4.396000e-09	0.000000e+00	6.787986e-01	1.800000e+00	
30	5.676000e-09	0.000000e+00	6.787986e-01	1.800000e+00	
31	8.236000e-09	0.000000e+00	6.787986e-01	1.800000e+00	
32	1.335600e-08	0.000000e+00	6.787986e-01	1.800000e+00	
33	2.359600e-08	0.000000e+00	6.787986e-01	1.800000e+00	
34	4.407600e-08	0.000000e+00	6.787986e-01	1.800000e+00	
35	8.503600e-08	0.000000e+00	6.787986e-01	1.800000e+00	
36	1.669560e-07	0.000000e+00	6.787986e-01	1.800000e+00	
37	3.307960e-07	0.000000e+00	6.787986e-01	1.800000e+00	
38	6.584760e-07	0.000000e+00	6.787986e-01	1.800000e+00	
39	1.313836e-06	0.000000e+00	6.787986e-01	1.800000e+00	
40	2.624556e-06	0.000000e+00	6.787986e-01	1.800000e+00	
41	5.245996e-06	0.000000e+00	6.787986e-01	1.800000e+00	
42	9.245996e-06	0.000000e+00	6.787986e-01	1.800000e+00	
43	1.324600e-05	0.000000e+00	6.787986e-01	1.800000e+00	
44	1.724600e-05	0.000000e+00	6.787986e-01	1.800000e+00	
45	2.124600e-05	0.000000e+00	6.787986e-01	1.800000e+00	
46	2.524600e-05	0.000000e+00	6.787986e-01	1.800000e+00	
47	2.924600e-05	0.000000e+00	6.787986e-01	1.800000e+00	
48	3.000020e-05	0.000000e+00	6.787986e-01	1.800000e+00	
49	3.000021e-05	0.000000e+00	6.787986e-01	1.800000e+00	
50	3.000023e-05	0.000000e+00	6.787986e-01	1.800000e+00	
51	3.000027e-05	0.000000e+00	6.787986e-01	1.800000e+00	
52	3.000030e-05	0.000000e+00	6.787986e-01	1.800000e+00	
53	3.000031e-05	0.000000e+00	6.787986e-01	1.800000e+00	
54	3.000032e-05	0.000000e+00	6.787986e-01	1.800000e+00	

Index   time                            clk             m.xsc1.msky130_ 
--------------------------------------------------------------------------------
55	3.000036e-05	0.000000e+00	6.787986e-01	1.800000e+00	
56	3.000042e-05	0.000000e+00	6.787986e-01	1.800000e+00	
57	3.000055e-05	0.000000e+00	6.787986e-01	1.800000e+00	
58	3.000080e-05	0.000000e+00	6.787986e-01	1.800000e+00	
59	3.000132e-05	0.000000e+00	6.787986e-01	1.800000e+00	
60	3.000234e-05	0.000000e+00	6.787987e-01	1.800000e+00	
61	3.000439e-05	0.000000e+00	6.787986e-01	1.800000e+00	
62	3.000848e-05	0.000000e+00	6.787987e-01	1.800000e+00	
63	3.001668e-05	0.000000e+00	6.787986e-01	1.800000e+00	
64	3.003306e-05	0.000000e+00	6.787987e-01	1.800000e+00	
65	3.006583e-05	0.000000e+00	6.787986e-01	1.800000e+00	
66	3.013136e-05	0.000000e+00	6.787987e-01	1.800000e+00	
67	3.026244e-05	0.000000e+00	6.787986e-01	1.800000e+00	
68	3.052458e-05	0.000000e+00	6.787987e-01	1.800000e+00	
69	3.104887e-05	0.000000e+00	6.787986e-01	1.800000e+00	
70	3.209744e-05	0.000000e+00	6.787987e-01	1.800000e+00	
71	3.419460e-05	0.000000e+00	6.787986e-01	1.800000e+00	
72	3.819460e-05	0.000000e+00	6.787987e-01	1.800000e+00	
73	4.219460e-05	0.000000e+00	6.787986e-01	1.800000e+00	
74	4.619460e-05	0.000000e+00	6.787987e-01	1.800000e+00	
75	5.019460e-05	0.000000e+00	6.787986e-01	1.800000e+00	
76	5.419460e-05	0.000000e+00	6.787987e-01	1.800000e+00	
77	5.819460e-05	0.000000e+00	6.787986e-01	1.800000e+00	
78	6.219460e-05	0.000000e+00	6.787987e-01	1.800000e+00	
79	6.619460e-05	0.000000e+00	6.787986e-01	1.800000e+00	
80	7.019460e-05	0.000000e+00	6.787987e-01	1.800000e+00	
81	7.419460e-05	0.000000e+00	6.787986e-01	1.800000e+00	
82	7.819460e-05	0.000000e+00	6.787987e-01	1.800000e+00	
83	8.219460e-05	0.000000e+00	6.787986e-01	1.800000e+00	
84	8.619460e-05	0.000000e+00	6.787987e-01	1.800000e+00	
85	9.019460e-05	0.000000e+00	6.787986e-01	1.800000e+00	
86	9.419460e-05	0.000000e+00	6.787987e-01	1.800000e+00	
87	9.819460e-05	0.000000e+00	6.787986e-01	1.800000e+00	
88	1.021946e-04	0.000000e+00	6.787987e-01	1.800000e+00	
89	1.061946e-04	0.000000e+00	6.787986e-01	1.800000e+00	
90	1.101946e-04	0.000000e+00	6.787987e-01	1.800000e+00	
91	1.141946e-04	0.000000e+00	6.787986e-01	1.800000e+00	
92	1.181946e-04	0.000000e+00	6.787987e-01	1.800000e+00	
93	1.221946e-04	0.000000e+00	6.787986e-01	1.800000e+00	
94	1.261946e-04	0.000000e+00	6.787987e-01	1.800000e+00	
95	1.301946e-04	0.000000e+00	6.787986e-01	1.800000e+00	
96	1.341946e-04	0.000000e+00	6.787987e-01	1.800000e+00	
97	1.381946e-04	0.000000e+00	6.787986e-01	1.800000e+00	
98	1.421946e-04	0.000000e+00	6.787987e-01	1.800000e+00	
99	1.461946e-04	0.000000e+00	6.787986e-01	1.800000e+00	
100	1.501946e-04	0.000000e+00	6.787987e-01	1.800000e+00	
101	1.541946e-04	0.000000e+00	6.787986e-01	1.800000e+00	
102	1.581946e-04	0.000000e+00	6.787987e-01	1.800000e+00	
103	1.621946e-04	0.000000e+00	6.787986e-01	1.800000e+00	
104	1.661946e-04	0.000000e+00	6.787987e-01	1.800000e+00	
105	1.700001e-04	0.000000e+00	6.787986e-01	1.800000e+00	
106	1.700001e-04	0.000000e+00	6.787986e-01	1.800000e+00	
107	1.700001e-04	0.000000e+00	6.787986e-01	1.800000e+00	
108	1.700002e-04	0.000000e+00	6.787986e-01	1.800000e+00	
109	1.700002e-04	0.000000e+00	6.787986e-01	1.800000e+00	
110	1.700002e-04	0.000000e+00	6.787986e-01	1.800000e+00	
111	1.700002e-04	0.000000e+00	6.787986e-01	1.800000e+00	
112	1.700003e-04	0.000000e+00	6.787986e-01	1.800000e+00	

Index   time                            clk             m.xsc1.msky130_ 
--------------------------------------------------------------------------------
113	1.700003e-04	0.000000e+00	6.787986e-01	1.800000e+00	
114	1.700004e-04	0.000000e+00	6.787986e-01	1.800000e+00	
115	1.700007e-04	0.000000e+00	6.787986e-01	1.800000e+00	
116	1.700012e-04	0.000000e+00	6.787986e-01	1.800000e+00	
117	1.700022e-04	0.000000e+00	6.787989e-01	1.800000e+00	
118	1.700043e-04	0.000000e+00	6.787985e-01	1.800000e+00	
119	1.700084e-04	0.000000e+00	6.787987e-01	1.800000e+00	
120	1.700166e-04	0.000000e+00	6.787987e-01	1.800000e+00	
121	1.700330e-04	0.000000e+00	6.787985e-01	1.800000e+00	
122	1.700657e-04	0.000000e+00	6.787988e-01	1.800000e+00	
123	1.701313e-04	0.000000e+00	6.787984e-01	1.800000e+00	
124	1.702623e-04	0.000000e+00	6.787989e-01	1.800000e+00	
125	1.705245e-04	0.000000e+00	6.787984e-01	1.800000e+00	
126	1.710488e-04	0.000000e+00	6.787989e-01	1.800000e+00	
127	1.720973e-04	0.000000e+00	6.787984e-01	1.800000e+00	
128	1.741945e-04	0.000000e+00	6.787989e-01	1.800000e+00	
129	1.781945e-04	0.000000e+00	6.787984e-01	1.800000e+00	
130	1.821945e-04	0.000000e+00	6.787989e-01	1.800000e+00	
131	1.861945e-04	0.000000e+00	6.787984e-01	1.800000e+00	
132	1.901945e-04	0.000000e+00	6.787989e-01	1.800000e+00	
133	1.941945e-04	0.000000e+00	6.787984e-01	1.800000e+00	
134	1.981945e-04	0.000000e+00	6.787989e-01	1.800000e+00	
135	2.000000e-04	0.000000e+00	6.787984e-01	1.800000e+00	

* c:\users\vivobook\appdata\roaming\spb_data\esim-workspace\counter\counter.cir
Transient Analysis  Sat Oct 08 23:11:24  2022
--------------------------------------------------------------------------------
Index   time            m.xsc1.msky130_ m.xsc1.msky130_ m.xsc2.msky130_ 
--------------------------------------------------------------------------------
0	0.000000e+00	1.800000e+00	1.800000e+00	8.610345e-12	
1	1.000000e-12	1.800000e+00	1.800000e+00	8.610328e-12	
2	2.000000e-12	1.800000e+00	1.800000e+00	8.610328e-12	
3	4.000000e-12	1.800000e+00	1.800000e+00	8.610341e-12	
4	8.000000e-12	1.800000e+00	1.800000e+00	8.610322e-12	
5	1.600000e-11	1.800000e+00	1.800000e+00	8.610340e-12	
6	3.200000e-11	1.800000e+00	1.800000e+00	8.610325e-12	
7	6.400000e-11	1.800000e+00	1.800000e+00	8.610347e-12	
8	1.000000e-10	1.800000e+00	1.800000e+00	8.610330e-12	
9	1.064000e-10	1.800000e+00	1.800000e+00	8.610342e-12	
10	1.192000e-10	1.800000e+00	1.800000e+00	8.610340e-12	
11	1.448000e-10	1.800000e+00	1.800000e+00	8.610343e-12	
12	1.960000e-10	1.800000e+00	1.800000e+00	8.610341e-12	
13	2.000000e-10	1.800000e+00	1.800000e+00	8.610343e-12	
14	2.080000e-10	1.800000e+00	1.800000e+00	8.610343e-12	
15	2.240000e-10	1.800000e+00	1.800000e+00	8.610342e-12	
16	2.560000e-10	1.800000e+00	1.800000e+00	8.610346e-12	
17	3.200000e-10	1.800000e+00	1.800000e+00	8.610339e-12	
18	4.480000e-10	1.800000e+00	1.800000e+00	8.610337e-12	
19	7.040000e-10	1.800000e+00	1.800000e+00	8.610301e-12	
20	1.216000e-09	1.800000e+00	1.800000e+00	8.610208e-12	
21	2.196000e-09	1.800000e+00	1.800000e+00	8.610374e-12	
22	2.296000e-09	1.800000e+00	1.800000e+00	8.610453e-12	
23	2.496000e-09	1.800000e+00	1.800000e+00	8.610642e-12	
24	2.896000e-09	1.800000e+00	1.800000e+00	8.611187e-12	
25	3.196000e-09	1.800000e+00	1.800000e+00	8.611613e-12	
26	3.276000e-09	1.800000e+00	1.800000e+00	8.611684e-12	
27	3.436000e-09	1.800000e+00	1.800000e+00	8.611748e-12	
28	3.756000e-09	1.800000e+00	1.800000e+00	8.611113e-12	
29	4.396000e-09	1.800000e+00	1.800000e+00	8.605136e-12	
30	5.676000e-09	1.800000e+00	1.800000e+00	8.608226e-12	
31	8.236000e-09	1.800000e+00	1.800000e+00	8.623394e-12	
32	1.335600e-08	1.800000e+00	1.800000e+00	8.589401e-12	
33	2.359600e-08	1.800000e+00	1.800000e+00	8.635826e-12	
34	4.407600e-08	1.800000e+00	1.800000e+00	8.582463e-12	
35	8.503600e-08	1.800000e+00	1.800000e+00	8.639456e-12	
36	1.669560e-07	1.800000e+00	1.800000e+00	8.580612e-12	
37	3.307960e-07	1.800000e+00	1.800000e+00	8.640390e-12	
38	6.584760e-07	1.800000e+00	1.800000e+00	8.580142e-12	
39	1.313836e-06	1.800000e+00	1.800000e+00	8.640625e-12	
40	2.624556e-06	1.800000e+00	1.800000e+00	8.580025e-12	
41	5.245996e-06	1.800000e+00	1.800000e+00	8.640684e-12	
42	9.245996e-06	1.800000e+00	1.800000e+00	8.579992e-12	
43	1.324600e-05	1.800000e+00	1.800000e+00	8.640710e-12	
44	1.724600e-05	1.800000e+00	1.800000e+00	8.579967e-12	
45	2.124600e-05	1.800000e+00	1.800000e+00	8.640736e-12	
46	2.524600e-05	1.800000e+00	1.800000e+00	8.579941e-12	
47	2.924600e-05	1.800000e+00	1.800000e+00	8.640761e-12	
48	3.000020e-05	1.800000e+00	1.800000e+00	8.579859e-12	
49	3.000021e-05	1.800000e+00	1.800000e+00	8.579625e-12	
50	3.000023e-05	1.800000e+00	1.800000e+00	8.579140e-12	
51	3.000027e-05	1.800000e+00	1.800000e+00	8.578295e-12	
52	3.000030e-05	1.800000e+00	1.800000e+00	8.577777e-12	
